!Agilent Technologies,N5245A,MY49151005,A.09.50.10
!Agilent N5245A: A.09.50.10
!Date: Thursday, December 20, 2018 18:15:24
!Correction: S11(Full 2 Port(1,2)) 
!S21(Full 2 Port(1,2)) 
!S12(Full 2 Port(1,2)) 
!S22(Full 2 Port(1,2)) 
!S2P File: Measurements: S11, S21, S12, S22:
# Hz S  RI   R 50
10000000 1.0044253 -0.035623487 0.0016779673 0.0031714267 -0.00092099502 0.0022281676 0.99859971 -0.034367777
259950000 0.59115338 -0.48594907 0.034494374 0.029837085 0.035147846 0.028937768 0.61289352 -0.48075446
509900000 0.29576918 -0.46323487 0.053993773 0.018084249 0.054847304 0.017319458 0.31831455 -0.46940261
759850000 0.17132734 -0.40743139 0.064496644 0.0070394282 0.063983724 0.0065917191 0.17713363 -0.40553057
1009800000 0.095892198 -0.36184695 0.070552461 -0.00075358793 0.070221916 -0.0011890745 0.10352077 -0.3517358
1259750000 0.052732147 -0.33986929 0.075945228 -0.015136125 0.07570342 -0.015309458 0.048458714 -0.32328552
1509700000 0.0069246213 -0.31970003 0.076450989 -0.027884675 0.076490417 -0.027911909 0.0054448699 -0.29722521
1759650000 -0.024716344 -0.30879867 0.075540178 -0.046042427 0.075656168 -0.046775807 -0.025446633 -0.28591883
2009600000 -0.072161913 -0.29151821 0.066028975 -0.060838252 0.065562353 -0.061109781 -0.067884415 -0.26603073
2259550000 -0.096894719 -0.25970301 0.055375054 -0.069405518 0.055166934 -0.069426239 -0.093388028 -0.25012666
2509500000 -0.12744939 -0.23989749 0.045616001 -0.080235802 0.044781175 -0.080632135 -0.11809156 -0.2284642
2759450000 -0.13979036 -0.20726733 0.031622369 -0.086737506 0.03182324 -0.08721368 -0.13788304 -0.19810182
3009400000 -0.16169375 -0.18195814 0.017801432 -0.088378973 0.018248409 -0.088960171 -0.16150217 -0.17273837
3259350000 -0.16083004 -0.15017517 0.0075383876 -0.092373505 0.0073549822 -0.09296342 -0.17207426 -0.14616677
3509300000 -0.17345007 -0.13073349 -0.0069209654 -0.093139961 -0.00627277 -0.093278758 -0.18278022 -0.1222055
3759250000 -0.16831267 -0.098916583 -0.019250823 -0.090568915 -0.019557212 -0.090364091 -0.18834166 -0.092225328
4009200000 -0.17010865 -0.079879127 -0.030377846 -0.087994888 -0.030680822 -0.087551035 -0.19451271 -0.067068897
4259150000 -0.16236414 -0.054330196 -0.04255395 -0.086141989 -0.042833708 -0.085743196 -0.19363971 -0.048482262
4509100000 -0.15859695 -0.038113311 -0.056074884 -0.07928317 -0.056149296 -0.079066448 -0.19000629 -0.028640542
4759050000 -0.15176137 -0.012892369 -0.068718672 -0.069965445 -0.069017887 -0.069378808 -0.18153076 -0.0048751216
5009000000 -0.13886203 0.005321024 -0.077958368 -0.059842415 -0.076767348 -0.059681885 -0.17364407 0.017401027
5258950000 -0.12861402 0.028135289 -0.083799303 -0.04901747 -0.084551461 -0.048391767 -0.15717638 0.035014659
5508900000 -0.11095077 0.041906018 -0.090759672 -0.038209673 -0.0913544 -0.037891638 -0.14420252 0.049554426
5758850000 -0.10053146 0.062893428 -0.09674418 -0.026368223 -0.095908917 -0.026025686 -0.12722702 0.070554793
6008800000 -0.077774867 0.073677734 -0.10019066 -0.012108013 -0.10092542 -0.011535973 -0.10621155 0.080314457
6258750000 -0.062567644 0.089972116 -0.10201595 0.0032317478 -0.10194074 0.0023442516 -0.086490139 0.093716197
6508700000 -0.036081228 0.09829177 -0.10101301 0.016436234 -0.10150475 0.016808288 -0.062109716 0.1042783
6758650000 -0.020070145 0.10667196 -0.09917023 0.032201502 -0.09937761 0.031205747 -0.039260149 0.10595511
7008600000 0.0066087828 0.11054898 -0.093686946 0.045467775 -0.094015308 0.045191731 -0.014219942 0.11211031
7258550000 0.026098298 0.10975713 -0.086536117 0.058265034 -0.087267227 0.058780756 0.012561549 0.1095254
7508500000 0.049148958 0.10768493 -0.077965528 0.070423163 -0.077363297 0.070170522 0.036716715 0.1063303
7758450000 0.067086481 0.099542171 -0.0670733 0.080123335 -0.06719666 0.080149807 0.057568897 0.10269257
8008400000 0.083132461 0.090955362 -0.055610951 0.088425823 -0.055692494 0.088656485 0.075607099 0.090980157
8258350000 0.095916912 0.078716345 -0.043248489 0.095666468 -0.043902893 0.095360152 0.091672286 0.075183719
8508300000 0.10587155 0.067602232 -0.030233387 0.1005111 -0.030287001 0.10110022 0.1095522 0.064056702
8758250000 0.11816812 0.05083764 -0.016399652 0.10503636 -0.015966918 0.10494131 0.11869822 0.050957549
9008200000 0.1200852 0.03674851 -0.0012245436 0.10667492 -0.0015219148 0.10664644 0.12467269 0.034155309
9258150000 0.12605166 0.018624408 0.013589878 0.10560437 0.013086635 0.10550895 0.13050319 0.019987637
9508100000 0.12340856 0.0012119272 0.027799455 0.10385478 0.028322849 0.10461576 0.13319905 0.00041388377
9758050000 0.12191684 -0.017732449 0.042251579 0.099892266 0.042313132 0.099623039 0.13218853 -0.015867572
10008000000 0.11617631 -0.037826203 0.055634897 0.092498362 0.056164883 0.091816969 0.13091886 -0.032752816
10257950000 0.1079322 -0.057698075 0.068079993 0.084046647 0.068341628 0.085020557 0.12063342 -0.053023946
10507900000 0.097799256 -0.078799933 0.079355374 0.074115954 0.079533063 0.073881313 0.11071669 -0.074136749
10757850000 0.084410854 -0.098207749 0.089758739 0.063172556 0.08980947 0.062973164 0.099224649 -0.091555238
11007800000 0.062827885 -0.11796427 0.097661696 0.049465217 0.097465076 0.050177295 0.083800219 -0.10814013
11257750000 0.045312736 -0.13186944 0.10304718 0.035862025 0.10361917 0.035628736 0.065020263 -0.12324211
11507700000 0.020748567 -0.14605357 0.10727531 0.022740727 0.10729206 0.022185666 0.043195348 -0.13686831
11757650000 -0.0035525924 -0.15524165 0.11076543 0.0071320231 0.11060561 0.0081361122 0.023346659 -0.14569438
12007600000 -0.025712283 -0.16436821 0.11087587 -0.0084252618 0.11101761 -0.0076061655 0.0001273589 -0.15516725
12257550000 -0.053484377 -0.16824049 0.10838868 -0.024435062 0.10843799 -0.023616577 -0.022056818 -0.15741451
12507500000 -0.077079967 -0.16572693 0.10413009 -0.038183156 0.10451886 -0.038177781 -0.046757966 -0.15848576
12757450000 -0.10167687 -0.16332513 0.099112757 -0.052806154 0.09817151 -0.053241845 -0.067666084 -0.15654542
13007400000 -0.12459817 -0.15595442 0.090020329 -0.065742172 0.089910612 -0.065543585 -0.087521411 -0.15213464
13257350000 -0.14415371 -0.14541923 0.080216765 -0.076887339 0.079651624 -0.077324376 -0.1062556 -0.1449431
13507300000 -0.16115043 -0.13424642 0.068531901 -0.087404601 0.067603171 -0.087578058 -0.12380432 -0.13383672
13757250000 -0.17680584 -0.1168541 0.056245074 -0.095965445 0.056815501 -0.095781617 -0.13827831 -0.12336231
14007200000 -0.18954675 -0.10049427 0.043229122 -0.10315051 0.042621642 -0.10265093 -0.14910042 -0.11084998
14257150000 -0.19816977 -0.082210056 0.028333288 -0.10785871 0.028881222 -0.10856085 -0.15974696 -0.093475029
14507100000 -0.20380743 -0.060312349 0.013595398 -0.11083151 0.012883511 -0.11196592 -0.16369264 -0.076578669
14757050000 -0.20698684 -0.039784055 -0.0012909689 -0.11261734 -0.0013242556 -0.11261994 -0.16909087 -0.056984182
15007000000 -0.20826726 -0.014309673 -0.015641147 -0.11215768 -0.016197836 -0.11242127 -0.16751622 -0.035735462
15256950000 -0.20411655 0.011588869 -0.032034948 -0.10959795 -0.031813744 -0.10971557 -0.16502604 -0.015500053
15506900000 -0.1981412 0.034832131 -0.047365699 -0.10495844 -0.04615166 -0.10511757 -0.15973957 0.0080727758
15756850000 -0.18951961 0.060961708 -0.060582843 -0.097403869 -0.060652822 -0.096847385 -0.1465043 0.028977687
16006800000 -0.17401542 0.088129722 -0.072174847 -0.088118769 -0.073103309 -0.088010006 -0.13559304 0.052266531
16256750000 -0.15709677 0.11032978 -0.084565699 -0.078126162 -0.084585719 -0.078414947 -0.11669638 0.073952213
16506700000 -0.13616815 0.13155521 -0.096621834 -0.066160895 -0.095849253 -0.066123448 -0.095820412 0.092027202
16756650000 -0.11209448 0.14981201 -0.10463747 -0.051178601 -0.10430922 -0.050901145 -0.075585417 0.10989837
17006600000 -0.088138759 0.16527584 -0.11086945 -0.03612278 -0.10995311 -0.036370762 -0.051965211 0.12396909
17256550000 -0.062671363 0.17765494 -0.11465036 -0.021314897 -0.11405945 -0.021262169 -0.030095192 0.13597207
17506500000 -0.035269398 0.18557425 -0.11745401 -0.0045571607 -0.11682339 -0.0051871329 -0.0059486986 0.14287029
17756450000 -0.0097233141 0.19094016 -0.11584882 0.012367733 -0.11650492 0.012067783 0.017574299 0.14778547
18006400000 0.016730526 0.19342184 -0.1124917 0.027260244 -0.11302538 0.027002065 0.037365418 0.14997078
18256350000 0.041077219 0.1916701 -0.10892402 0.042722229 -0.108973 0.042782843 0.059623785 0.14554989
18506300000 0.06487222 0.18495025 -0.10236475 0.057119898 -0.10267012 0.056502603 0.081136778 0.14167225
18756250000 0.086293466 0.17484657 -0.092842519 0.07057628 -0.093478069 0.071328029 0.098413847 0.13010992
19006200000 0.10754574 0.16306379 -0.0837541 0.082606748 -0.083697647 0.08264742 0.11745468 0.11924147
19256150000 0.1265676 0.14610487 -0.071586214 0.09422344 -0.072253421 0.093483098 0.13267411 0.10124265
19506100000 0.14143522 0.12774937 -0.057815086 0.10353655 -0.058287483 0.10295589 0.14216276 0.079077959
19756050000 0.15261066 0.1043092 -0.04379826 0.11067317 -0.0434139 0.11059668 0.15320396 0.060168736
20006000000 0.16098346 0.080941938 -0.02838329 0.11552391 -0.027469253 0.11509123 0.156847 0.035978772
20255950000 0.16665053 0.052991375 -0.011050923 0.1184452 -0.011756465 0.1184366 0.15535599 0.010371255
20505900000 0.16568862 0.026537206 0.0049512242 0.12030711 0.0047782697 0.11958431 0.15502414 -0.011743695
20755850000 0.16436547 0.0012006866 0.021376967 0.11817331 0.021192977 0.11809181 0.14375298 -0.039168779
21005800000 0.15868527 -0.023968173 0.036867402 0.11350019 0.037284672 0.11327045 0.13232626 -0.062962562
21255750000 0.1487608 -0.049834918 0.052075412 0.10717849 0.052639406 0.10724445 0.12100031 -0.084959432
21505700000 0.13473579 -0.070845395 0.067049555 0.099228837 0.066632032 0.099075772 0.10515116 -0.10841488
21755650000 0.12050369 -0.093033955 0.079717532 0.08930704 0.079866923 0.089302614 0.086165927 -0.12771586
22005600000 0.10277069 -0.11182018 0.090459906 0.077103548 0.090951458 0.077613629 0.067624249 -0.15012103
22255550000 0.083253555 -0.12935257 0.10144479 0.064326778 0.10106345 0.064760208 0.04562439 -0.16265029
22505500000 0.060992658 -0.14234309 0.10919298 0.050438795 0.10967296 0.049412578 0.021479351 -0.17649174
22755450000 0.039758168 -0.1513347 0.11601467 0.034786936 0.11546827 0.033989049 -0.0035810005 -0.18817906
23005400000 0.011715827 -0.15747048 0.1192495 0.017461622 0.11972465 0.018423811 -0.031753007 -0.1941275
23255350000 -0.013011321 -0.15928066 0.12172478 0.0011168104 0.12099303 0.0017729288 -0.057386238 -0.19447388
23505300000 -0.038619421 -0.15675044 0.12067059 -0.015575994 0.11939418 -0.016044961 -0.084291205 -0.19603223
23755250000 -0.067126915 -0.15073891 0.11695039 -0.031987682 0.11737797 -0.032292094 -0.10912439 -0.18736309
24005200000 -0.092397593 -0.13570651 0.11130851 -0.047606479 0.11223847 -0.048067674 -0.1311854 -0.17791747
24255150000 -0.11236828 -0.11961696 0.10405083 -0.062760413 0.10479138 -0.062650375 -0.15356103 -0.16132554
24505100000 -0.13292189 -0.09615887 0.094332427 -0.076731957 0.094251446 -0.075749271 -0.16864033 -0.13953294
24755050000 -0.14991407 -0.070840091 0.083906241 -0.088567831 0.083529428 -0.088436306 -0.18158276 -0.11833091
25005000000 -0.16089332 -0.042894013 0.070310704 -0.099006899 0.070458628 -0.098934352 -0.18884143 -0.086881526
25254950000 -0.17074607 -0.012281273 0.056413636 -0.10824125 0.055981345 -0.1083185 -0.19503583 -0.058332358
25504900000 -0.17500155 0.018612217 0.040778097 -0.11453592 0.041014027 -0.11413124 -0.19886792 -0.024591211
25754850000 -0.17482223 0.050763436 0.025151379 -0.11876461 0.025256226 -0.11916465 -0.19657019 0.010347154
26004800000 -0.17165251 0.082331643 0.0076803877 -0.12250067 0.0082724066 -0.1229537 -0.18939738 0.043472853
26254750000 -0.16674523 0.11550426 -0.0097534489 -0.12299123 -0.01064304 -0.12276427 -0.18573183 0.080765381
26504700000 -0.15907963 0.14644153 -0.027794028 -0.12014707 -0.028686956 -0.11926435 -0.16851953 0.11409025
26754650000 -0.14481816 0.17546567 -0.045986254 -0.1134586 -0.04407578 -0.11496371 -0.15954253 0.1444892
27004600000 -0.13098529 0.20304014 -0.060637802 -0.10617872 -0.059721407 -0.10631392 -0.14026356 0.17472056
27254550000 -0.11257778 0.23188265 -0.07329753 -0.097843148 -0.07270734 -0.097584479 -0.11804006 0.20022129
27504500000 -0.088600971 0.25598308 -0.086659305 -0.086407237 -0.086830199 -0.087006688 -0.098450385 0.23481517
27754450000 -0.064857759 0.27694693 -0.09757705 -0.074431874 -0.097231552 -0.073707454 -0.064009868 0.25551298
28004400000 -0.03506973 0.28841087 -0.10644564 -0.058987428 -0.10656876 -0.059879605 -0.042257376 0.27121842
28254350000 -0.0058884867 0.30154964 -0.11242031 -0.044469908 -0.11439878 -0.044567525 -0.0061907838 0.28866309
28504300000 0.024209226 0.30216992 -0.11821764 -0.029377513 -0.11734188 -0.029805763 0.024651293 0.29226142
28754250000 0.054756489 0.29821685 -0.12116181 -0.011879873 -0.12044414 -0.013888911 0.056751989 0.29635665
29004200000 0.085215591 0.28951758 -0.12018068 0.0014391798 -0.12070822 0.0033419952 0.086015761 0.28990322
29254150000 0.11141231 0.27417725 -0.12012415 0.017663686 -0.11876956 0.017965106 0.11386745 0.27694109
29504100000 0.1349176 0.25691187 -0.11532443 0.033095744 -0.11651618 0.033457015 0.14161301 0.26514593
29754050000 0.1596489 0.23183207 -0.11063667 0.049175933 -0.11028402 0.049183983 0.17146893 0.24746366
30004000000 0.18154493 0.20205228 -0.10396398 0.063707881 -0.10389084 0.06374567 0.19004384 0.21689442
30253950000 0.2035443 0.17031756 -0.094408073 0.077918805 -0.095409133 0.076933846 0.20954306 0.18833753
30503900000 0.21721503 0.13634871 -0.083382756 0.091012344 -0.084458686 0.091180488 0.23400804 0.15627348
30753850000 0.22872718 0.098049998 -0.07088989 0.10312499 -0.070792757 0.10080571 0.25033641 0.11927637
31003800000 0.23931578 0.05702205 -0.056370061 0.11233778 -0.056166168 0.11206137 0.2579951 0.08663629
31253750000 0.24363533 0.014464599 -0.039356001 0.11860033 -0.039763477 0.11944292 0.27056116 0.049139269
31503700000 0.24592872 -0.032777663 -0.023821255 0.12439474 -0.022841316 0.12668957 0.27019486 0.0033792558
31753650000 0.24085364 -0.07975015 -0.0050450265 0.12756853 -0.0048375279 0.12688859 0.27066112 -0.036851436
32003600000 0.22836901 -0.12706134 0.014746772 0.12714382 0.014289622 0.1279822 0.2644628 -0.08342801
32253550000 0.21557844 -0.16516943 0.033193234 0.12260234 0.033775598 0.12442094 0.25297952 -0.126104
32503500000 0.19527762 -0.20458999 0.049565565 0.11695099 0.049934153 0.11616832 0.23807493 -0.16652074
32753450000 0.16911559 -0.24132524 0.064759128 0.10859445 0.064585432 0.10843692 0.22345953 -0.21111189
33003400000 0.14541991 -0.26715532 0.078155823 0.09703806 0.07702563 0.098008066 0.20402397 -0.23760465
33253350000 0.11795831 -0.2906484 0.089062855 0.085594051 0.090479977 0.084702313 0.18124859 -0.26617369
33503300000 0.086842865 -0.30608812 0.099849515 0.072150946 0.099928513 0.071771532 0.15764531 -0.284486
33753250000 0.060195565 -0.31323639 0.10746136 0.058930233 0.10929465 0.05868049 0.12750091 -0.3023248
34003200000 0.027599286 -0.3150107 0.11491133 0.045246139 0.11647318 0.044162739 0.1035569 -0.30888498
34253150000 -0.00029546354 -0.31381631 0.11977322 0.028710125 0.11911887 0.029469365 0.069086261 -0.31583449
34503100000 -0.027030418 -0.30380699 0.12333496 0.011964593 0.12265798 0.011073635 0.042578496 -0.31292394
34753050000 -0.053202823 -0.29425004 0.1237793 -0.0034662245 0.12437842 -0.0035427446 0.0050113718 -0.30897653
35003000000 -0.077574253 -0.27562642 0.12413415 -0.021144334 0.12427943 -0.02071307 -0.030887311 -0.29800087
35252950000 -0.10247698 -0.25274205 0.12002286 -0.03845425 0.12085307 -0.038512267 -0.053881139 -0.28006455
35502900000 -0.13022128 -0.22405347 0.11555341 -0.055303775 0.1156202 -0.054993108 -0.087784134 -0.26080319
35752850000 -0.15352462 -0.19191866 0.10911626 -0.071298204 0.10851458 -0.071739197 -0.10919647 -0.22864352
36002800000 -0.17499614 -0.15131515 0.097902618 -0.088514373 0.098409683 -0.087265059 -0.1314386 -0.19696096
36252750000 -0.19106214 -0.10180803 0.08537855 -0.10257618 0.084083565 -0.10290685 -0.15023383 -0.15811604
36502700000 -0.19656618 -0.051185045 0.068614922 -0.1161356 0.068663321 -0.11566561 -0.15983015 -0.10969416
36752650000 -0.2011527 0.0022334349 0.051568303 -0.12460176 0.050233111 -0.12493597 -0.16946189 -0.064784408
37002600000 -0.19933964 0.054560591 0.031337637 -0.13076916 0.030908905 -0.12968922 -0.17798389 -0.01493305
37252550000 -0.19546984 0.10654619 0.011941447 -0.13258331 0.011808789 -0.13323985 -0.17522328 0.033048883
37502500000 -0.17870171 0.15306883 -0.0085757188 -0.13456553 -0.007656923 -0.13230902 -0.1733216 0.083946154
37752450000 -0.16547768 0.1982629 -0.027498683 -0.13014856 -0.026977818 -0.12961388 -0.1602973 0.13302064
38002400000 -0.14278783 0.23583759 -0.045972198 -0.12246703 -0.044450689 -0.12250016 -0.1474622 0.17682193
38252350000 -0.12113034 0.27277237 -0.061028287 -0.11454146 -0.061703786 -0.11419741 -0.13438511 0.2123923
38502300000 -0.092519097 0.30200469 -0.075165026 -0.10375083 -0.075230263 -0.10332703 -0.1045328 0.2484237
38752250000 -0.066255063 0.32816583 -0.086943679 -0.090816975 -0.085970156 -0.09161789 -0.082764842 0.27773893
39002200000 -0.042848293 0.34518236 -0.096521415 -0.07802882 -0.09736219 -0.078413181 -0.050681684 0.30242044
39252150000 -0.010055605 0.36224541 -0.10352973 -0.064365745 -0.10421213 -0.063016504 -0.025684558 0.31931809
39502100000 0.017689746 0.37254602 -0.1127108 -0.049882583 -0.11293595 -0.050134532 0.0091883652 0.32995081
39752050000 0.047923107 0.37648967 -0.1181577 -0.032891307 -0.1170662 -0.034154553 0.0381734 0.33423182
40002000000 0.078141406 0.37426862 -0.12018202 -0.018856967 -0.12189 -0.017495206 0.068247594 0.33144158
40251950000 0.10807046 0.36406636 -0.12377617 -0.001501472 -0.12249084 -0.0013036486 0.097903378 0.32794803
40501900000 0.13862555 0.35400298 -0.12423436 0.012968005 -0.12283846 0.013852928 0.12666644 0.30955654
40751850000 0.16809854 0.33509988 -0.12040149 0.031000214 -0.12235764 0.030325603 0.15295824 0.29582027
41001800000 0.19113955 0.31070283 -0.11716544 0.046363413 -0.11760011 0.046618503 0.18386787 0.26902744
41251750000 0.2144874 0.28489298 -0.11040415 0.062632978 -0.11077112 0.06269493 0.20761622 0.24156849
41501700000 0.24099346 0.25028673 -0.10222995 0.076262243 -0.10128827 0.078111082 0.23266123 0.20096451
41751650000 0.25664279 0.21169892 -0.090949744 0.090683326 -0.090314217 0.090618804 0.24661998 0.16446544
42001600000 0.26461667 0.17751299 -0.077108182 0.10285355 -0.076275147 0.10354409 0.26699883 0.11890376
42251550000 0.28127542 0.1283796 -0.061699986 0.11385528 -0.063999176 0.11333102 0.27642944 0.070941344
42501500000 0.28312707 0.084588364 -0.046306912 0.12264913 -0.046089623 0.12210826 0.27754763 0.021710232
42751450000 0.27773795 0.040114798 -0.027660979 0.12752962 -0.027543457 0.1279539 0.27646425 -0.031125892
43001400000 0.27252278 -0.0026606987 -0.0098503903 0.12948287 -0.0086200023 0.13126206 0.26233375 -0.080852792
43251350000 0.25807163 -0.046490394 0.0085931877 0.12975073 0.0095837964 0.13016322 0.2493165 -0.1298632
43501300000 0.24098569 -0.090475015 0.028225292 0.12690711 0.028592229 0.12709607 0.22602163 -0.17347901
43751250000 0.21257259 -0.12315366 0.045476269 0.12185608 0.045025412 0.12104275 0.20711911 -0.21750057
44001200000 0.19384789 -0.15445942 0.061518788 0.11502102 0.062040944 0.11437946 0.17831352 -0.25097713
44251150000 0.14998831 -0.1852884 0.077303894 0.10383543 0.078615196 0.10441997 0.14793147 -0.28288588
44501100000 0.11936458 -0.20691141 0.092298172 0.092600778 0.091536835 0.093167551 0.11661474 -0.29850677
44751050000 0.09399619 -0.22652569 0.104254 0.080404811 0.10421716 0.080177099 0.084688589 -0.31678078
45001000000 0.049238905 -0.23967028 0.11521302 0.063187949 0.11512345 0.063378327 0.038704932 -0.32197133
45250950000 0.0014405141 -0.24065422 0.12160311 0.048271045 0.12247979 0.048378196 -0.00044093415 -0.3352755
45500900000 -0.034427714 -0.25266325 0.12806967 0.029534314 0.12842914 0.030918414 -0.042364385 -0.33314437
