#  HZ   S   RI   R     50.0 
! Rohde & Schwarz ZVL3 2Ports - Version 2.10 - 1303.6509k03 SN: 100567
! Date: 2007-12-13 01:09:34
! Eingang -40dB
! Data & Calibration Information:
! Trc1:S11(TOSM) Trc4:S21(TOSM) Trc3:S12(TOSM) Trc2:S22(TOSM)
! 
! 
! 
 9.000000000000000E3     9.719152232702700E-1  -4.408213430261080E-2   1.045186276173758E-4   1.020733131493573E-4   1.046418851176560E-4   1.764597807572763E-4   9.796767400629336E-1  -3.141962509111652E-2  
 9.590845681446175E3     9.696143810095429E-1  -3.919739005846872E-2   2.216815519285689E-5   2.020851116618743E-4   7.239497193532714E-5   1.505036416374753E-4   9.761897401538422E-1  -3.204928298379689E-2  
 1.022048009836831E4     9.667718514653594E-1  -3.607470306642542E-2   1.017354975529197E-5   9.881033514535403E-5   7.483461955913784E-5   1.214198704452141E-4   9.738076396297405E-1  -3.060086644491500E-2  
 1.089144971263803E4     9.661891552477164E-1  -3.246884127109263E-2   4.522586603327195E-5   1.009806243628497E-4   5.167039334891866E-5   1.026179677228776E-4   9.717925573417500E-1  -2.630385982630524E-2  
 1.160646816012696E4     9.653260350017658E-1  -2.737439873061411E-2   2.202825683722038E-5   1.161903151333725E-4  -1.664047491289819E-5   1.105593001653403E-4   9.703395106906401E-1  -2.702594750844106E-2  
 1.236842722559957E4     9.638952470265230E-1  -2.376198350881759E-2   5.703443873498700E-5   4.577805759583193E-5   1.171370364298729E-4   7.130552427215884E-5   9.703125837386237E-1  -2.316786582908692E-2  
 1.318040853810255E4     9.616966515327697E-1  -2.196882463838022E-2   5.017330303455136E-5   9.436268667501908E-5   7.272666389613708E-5   7.352533890468067E-5   9.685753454718172E-1  -2.119598701549845E-2  
 1.404569603415080E4     9.632047070922685E-1  -1.720830887289705E-2   1.152947562037802E-4   5.136104317490209E-5   4.579117478335542E-5   1.255215930265589E-4   9.672888831329143E-1  -1.878681450732588E-2  
 1.496778923911565E4     9.625453006273413E-1  -1.321823748738019E-2   5.156206638170094E-5   1.005438099035283E-4   7.782297021831213E-5   1.263700502867643E-4   9.663646507267737E-1  -1.701325380482977E-2  
 1.595041742052987E4     9.629643397481661E-1  -1.408656327289385E-2   7.100374251249871E-5   7.804591008923365E-5   4.230106174857132E-5   5.488067545938429E-5   9.662766322319295E-1  -1.686463420202199E-2  
 1.699755467055031E4     9.595174305638584E-1  -1.139507209368581E-2  -4.898167301946347E-5  -3.638985246597192E-5  -6.458681339074408E-5   2.390463776506457E-4   9.686568931645546E-1  -1.282379850135268E-2  
 1.811343597857697E4     9.609200298208719E-1  -6.571323986714985E-3   9.884845223258442E-5   1.738003403645692E-4  -2.805925273442547E-5   1.014147452392859E-4   9.650392111830968E-1  -1.098913380237554E-2  
 1.930257435903185E4     9.624675184150326E-1  -4.754027000093142E-3   9.440323031048661E-5   7.332273888151637E-5   4.273622576648343E-5  -5.867841752199913E-6   9.662309649365229E-1  -7.468727199477844E-3  
 2.056977910356826E4     9.650467054132257E-1  -3.493161500837833E-3   3.527499268376553E-5   3.302427434555765E-5   6.933439428243385E-6   1.016921321920436E-4   9.657096958757971E-1  -7.541724202607305E-3  
 2.192017523152882E4     9.625205729942682E-1   1.121339417157698E-3  -1.058152971036189E-4   1.049018809073813E-4   2.225717853137461E-5   1.106130109360389E-5   9.667798106992650E-1  -2.920981147964502E-3  
 2.335922421731685E4     9.660262284222627E-1   5.522057320345112E-4  -6.104296709628602E-5   1.201688176690184E-4   1.375982350408575E-4   2.495724277743321E-5   9.661427946410288E-1  -3.464227352715070E-3  
 2.489274607850958E4     9.662659157483010E-1   1.569378946256015E-3   9.030754672624371E-5   4.387651936670427E-6  -2.681870297004033E-5   6.478502335493803E-5   9.672217321508878E-1  -2.477243055793175E-3  
 2.652694291404553E4     9.667709485738859E-1   6.533413005961394E-3  -3.066764873597456E-5   1.877890805490073E-5  -1.441519518145990E-4   8.464963356263956E-5   9.656842556764959E-1   2.406543331124728E-3  
 2.826842398768253E4     9.690399804545770E-1   8.630225799923941E-3   1.201356095100843E-4  -3.108292947688251E-5  -8.329412603575496E-5   1.798435535338842E-4   9.681968049575180E-1   7.632639111530255E-3  
 3.012423245817272E4     9.701479745157012E-1   7.368461932723007E-3   5.625331362923670E-5  -1.320523980573672E-4   3.670310857116431E-5   5.023548767699759E-5   9.685590878649456E-1   2.909281370460724E-3  
 3.210187386426073E4     9.708144542749713E-1   1.034208854267328E-2   1.016086500978042E-5  -1.805635767600668E-4   7.651498166122027E-5   2.147963542365906E-5   9.677114055682858E-1   5.537497476485658E-3  
 3.420934647970831E4     9.713910069440549E-1   8.377624333235634E-3   8.117298274139323E-5   2.263827538114657E-5   5.962542548412928E-5  -1.536959807805462E-5   9.703813075040140E-1   8.094050057559992E-3  
 3.645517366111183E4     9.763076873939475E-1   9.529275563041484E-3   3.666601601866253E-5  -6.941837503637310E-5   1.210711083875770E-4  -1.050617908357809E-4   9.714111721552849E-1   9.525724738578573E-3  
 3.884843831933830E4     9.783892593803969E-1   9.848206367100086E-3   1.293916907560433E-4  -2.732722835530504E-5   2.655361335284311E-4   1.777799172766294E-4   9.716079919655949E-1   1.281275480628613E-2  
 4.139881965399488E4     9.785005682227912E-1   1.313926470379975E-2  -5.938085581651262E-5   1.376190270354004E-4   5.372489763475357E-5   1.168469250832465E-4   9.745248581931515E-1   1.337677158303244E-2  
 4.411663229949842E4     9.812637322813698E-1   1.295712170973090E-2  -1.374777640787742E-4  -8.387854012544144E-6   2.907710164175565E-5   1.207631415598539E-4   9.752655224888170E-1   1.011292540817700E-2  
 4.701286804106592E4     9.813251773179832E-1   1.467153846937478E-2   1.156184691018830E-4   1.215731385697809E-4  -1.904249720984659E-5   4.235285013452201E-5   9.794430413763857E-1   1.281227641198744E-2  
 5.009924026933956E4     9.821082952378560E-1   1.288890213595704E-2  -1.473011311056070E-4   1.588035783765390E-4   9.456836389887575E-5  -2.664368007142341E-5   9.784853941680635E-1   9.227816840861981E-3  
 5.338823135343663E4     9.853088964191623E-1   1.155540298792678E-2   5.309848773363547E-5  -2.942025924299283E-5   2.265530958951447E-4  -4.722255640462138E-5   9.802619737817903E-1   1.134059960153187E-2  
 5.689314312401744E4     9.860250578865050E-1   1.186787771845286E-2  -4.402007978210782E-5   2.519923251959231E-5  -6.711753920689143E-5   1.833204457899587E-4   9.812895246300374E-1   1.096859324890127E-2  
 6.062815067054243E4     9.847464796504948E-1   1.147033710531176E-2  -1.332388061836101E-5  -3.042825021320659E-5   1.931097037699238E-5   9.689197376397781E-5   9.845152520543399E-1   1.094036993804138E-2  
 6.460835967029332E4     9.874964641255243E-1   1.056487273232127E-2  -6.922505109171773E-5  -4.688926605094804E-5  -1.107135354544363E-4  -7.072167090212799E-5   9.845996213309100E-1   1.476979349044684E-2  
 6.884986748101711E4     9.904320648957362E-1   1.374827579223741E-2   2.309489743597743E-5   3.795402034164741E-4   2.863058407803804E-4   1.747640340789073E-4   9.865125255691507E-1   1.208874783877012E-2  
 7.336982824427271E4     9.923210032054149E-1   1.421032812772559E-2   5.475324308112128E-6  -7.627613961308592E-6  -1.134412445513858E-4  -1.656495469764765E-4   9.850266251545143E-1   1.363625439623995E-2  
 7.818652226278118E4     9.924579853131138E-1   1.156741970763029E-2  -1.203593175792013E-4   1.248177261223204E-4   1.781268642879385E-5   1.232448532860730E-5   9.854207191281136E-1   1.080270817912517E-2  
 8.331942993236556E4     9.924978234832669E-1   1.205111419882135E-2  -2.574127415692026E-4  -1.317744791282284E-4   2.762601560995631E-4  -1.060079082433642E-4   9.908257119952550E-1   1.310728468343185E-2  
 8.878931052748727E4     9.960534526808617E-1   9.353150086529047E-3   2.714796456634641E-4  -1.217209060564078E-4  -2.325742403976790E-5  -9.659496914549773E-5   9.914090960008618E-1   1.002743518720130E-2  
 9.461828615901497E4     9.946359746733207E-1   1.011944464965088E-2   9.553630855838025E-5   1.662411335610154E-4   1.213135488810721E-4   1.253294618803626E-4   9.908891456381265E-1   1.161252836722571E-2  
 1.008299312437808E5     9.967091307849824E-1   9.010038731890911E-3  -4.888320610997964E-6   1.131816828508101E-4  -1.528862177032422E-4   6.764052896965113E-5   9.944093409450386E-1   7.951821703578652E-3  
 1.074493678477700E5     9.950130325729575E-1   6.995306734797507E-3  -1.109741647166896E-4   1.295178396583079E-4  -8.331693579608223E-5   5.107596989398795E-5   9.932249799030929E-1   9.125040800294252E-3  
 1.145033672885451E5     9.989352503571056E-1   5.379105735207216E-3  -1.291075390300948E-4   7.989925317624298E-5  -1.702907512769290E-4   8.524208901591394E-5   9.970812075743909E-1   7.381436262636942E-3  
 1.220204584078209E5     9.993389048322460E-1   7.764070608364787E-3   7.041782801952068E-5   1.503063902051083E-4  -4.028477947901237E-5  -6.104932819657531E-8   9.965267800600607E-1   4.941036746594732E-3  
 1.300310429520813E5     9.990518029992633E-1   5.504698993304995E-3   1.440801859793956E-4   8.460948437225746E-5  -7.073535629277696E-5   1.295365582916788E-4   9.959739698866759E-1   1.752598404236960E-3  
 1.385675185278790E5     1.000681663039226   6.103941324821734E-3   2.081520828531713E-4  -1.087218220364245E-4   2.457489456633116E-4   1.364727966965110E-4   9.991871457877619E-1   4.705911370236867E-3  
 1.476644096290913E5     9.988846286107377E-1  -1.656993731779732E-4   2.182483940445740E-4   1.988782669808242E-5  -2.280612737778315E-5  -3.948062410402810E-5   1.000053849069912   1.806214408690205E-3  
 1.573585072660521E5     9.990112262656040E-1   4.110354225410368E-4  -1.391936253295064E-4  -8.072378223015890E-5  -3.397065804215820E-4   4.250877381533849E-5   9.962074793130350E-1   1.293285370416064E-3  
 1.676890177612703E5     1.006685073957841   1.289980905474679E-3  -1.251036624375533E-4  -1.288396644360474E-5   3.797574370109266E-4  -1.952974193842420E-5   1.000813065526764  -9.627007055086358E-4  
 1.786977213135145E5     1.005807599223360   1.124348022646351E-3  -2.328123416885263E-4   5.403390733266650E-4   1.350896862686970E-4   1.488747924121241E-4   9.988961483051796E-1  -4.710377627743814E-3  
 1.904291409715547E5     1.001231718936245  -8.015481997670092E-3   2.353289066692450E-4   1.216079852766517E-4  -1.858767424285599E-4  -3.663253397771884E-4   1.002742866940460   8.837016292070988E-6  
 2.029307227009489E5     1.003012669370782  -5.327021390088034E-3   2.369733716365756E-5   6.770525251903226E-5   6.903905974563153E-5   9.169534291857347E-5   9.969889321713439E-1  -3.330916251198706E-3  
 2.162530272721275E5     1.000954485382170  -3.831507756499375E-3   1.881999882103993E-4   1.791337502478228E-4   5.505793718462000E-6  -9.834811481634934E-5   1.000580420905242  -6.624361620794605E-3  
 2.304499347458385E5     1.004884979482104  -6.469170838564965E-3  -1.108322772059932E-4  -1.232286520667027E-4   6.967750222902382E-5   1.216854488636781E-5   1.001959603963584  -7.112050145798290E-3  
 2.455788623829642E5     1.005652397025763  -7.299162422190937E-3  -1.051849285644595E-4   5.298454770332762E-4   3.301285676094639E-4  -1.050296677925634E-5   1.001164348070436  -1.024888639462947E-2  
 2.617009968600129E5     1.005533149814023  -7.588636041998285E-3  -1.063416916152914E-5  -1.033853916464266E-4   4.990128613060578E-5  -9.228819741700148E-5   9.994654178805633E-1  -7.511063725648654E-3  
 2.788815417294460E5     1.006117298343210  -1.423211764078788E-2  -1.338864827203932E-4  -1.654678566892929E-5  -9.856279738902359E-5   1.692513048278466E-4   1.001934604194711  -1.459652558530721E-2  
 2.971899811256565E5     1.001803371360779  -1.416442905373308E-2  -4.000510285388061E-4  -1.380343048461729E-5  -1.320525593005620E-4   1.459474415863406E-4   1.006291758784504  -1.010186592495874E-2  
 3.167003607831192E5     9.987723524508586E-1  -9.290947476752298E-3  -1.989536700091361E-4  -2.006976854290897E-4  -2.759219111531116E-5  -1.845621162329317E-4   1.002721483686377  -2.020364658239320E-2  
 3.374915875032472E5     1.003064929947309  -1.623667144464065E-2   3.913010916768352E-4   4.265723911484559E-4  -4.320793754545862E-6  -1.845482448100305E-4   1.001825926492882  -2.022149940095477E-2  
 3.596477482811036E5     1.004059515310370  -1.552701581485406E-2  -3.500759096203289E-4   2.262678530780880E-4   3.213386982970771E-5   2.516879961561974E-4   1.005418129498009  -1.394421413519714E-2  
 3.832584503826293E5     1.002209805553733  -1.822931445370962E-2   5.418467775913324E-5   1.816039632082783E-4  -4.334434305617903E-4   4.484833775178802E-5   1.002565873696252  -1.846848152652724E-2  
 4.084191837477771E5     1.008895437122846  -2.197189349662081E-2  -5.109797930509177E-5   8.764770647351239E-5   1.232479641265745E-4  -1.202153065548832E-4   1.002896552160481  -2.128476111303709E-2  
 4.352317071852377E5     1.006673687803678  -2.132667049044341E-2  -5.302924883921475E-5   2.646411482618654E-4  -2.379080726035217E-6   4.098343737275337E-4   1.000357218760633  -2.520232980600512E-2  
 4.638044599206648E5     1.004202467597136  -2.419397928946627E-2  -1.554034191153757E-4  -1.987455254525932E-4   1.391611034256942E-4  -2.257658543513251E-4   1.004673389572288  -2.289533602789036E-2  
 4.942530001628427E5     1.003698728253555  -2.790687755546639E-2   3.808862114073176E-4   2.154774465648635E-5  -9.440413293771376E-6   6.249241329351379E-5   9.967048067727756E-1  -2.668731134026804E-2  
 5.267004724615129E5     1.005816645058437  -3.250649053894768E-2   1.802386406995210E-4   2.534345042304431E-4  -1.693074898702468E-4   6.297159111670051E-5   1.002581055825765  -3.090898321603738E-2  
 5.612781057470179E5     1.003696463439306  -3.056247496742115E-2   1.182542821604042E-4  -4.309664878948451E-5   3.258108648059207E-4   1.642356371133135E-4   9.995228590884678E-1  -3.906599412410979E-2  
 5.981257440660085E5     1.006376275888067  -3.204793350797682E-2   2.230901424143578E-5  -3.377486535010939E-5   4.005495203340481E-5   2.279111162169036E-5   1.001430350649248  -3.831598820583502E-2  
 6.373924121596953E5     1.004102699078695  -4.154700614890591E-2   2.780583608001491E-5   1.654369979667567E-4  -3.565789851650141E-4   2.461334459347958E-4   1.003630480981631  -4.044803579565285E-2  
 6.792369181720415E5     1.001452428598403  -3.790330401452674E-2   1.091431631398895E-4   1.479942869537651E-4   5.511356732058961E-5   3.417217189126365E-5   1.000837585048623  -4.323485356231569E-2  
 7.238284959254593E5     1.001830065329503  -4.498562771819223E-2  -2.098031271024048E-4   3.010246195268336E-4   2.638314298109919E-4  -9.579891920634639E-6   1.001156091402586  -4.603174998185867E-2  
 7.713474893615969E5     1.004376189216627  -4.849575200711828E-2   1.761519145467515E-4   1.996666143645881E-5  -4.676530806048624E-6   2.369558213760431E-4   1.002012220141175  -4.745001935109847E-2  
 8.219860819153357E5     1.004194615711236  -5.009716789126117E-2   2.176548912596311E-4   3.130803856486415E-4   1.846591960328972E-4   3.388000639504534E-5   1.000778738223679  -5.309364646065682E-2  
 8.759490737718400E5     1.003723277167962  -5.330524837675670E-2   1.183698879805473E-4   1.059075973897691E-4   2.050798537726171E-4   4.196880895236330E-5   9.994107223401303E-1  -5.848859794265593E-2  
 9.334547101501587E5     1.000959353625717  -5.780806508681094E-2   2.235393833472572E-5   1.771813475560363E-4  -1.198747997084185E-4   1.333668678436993E-4   1.001691913792912  -6.087980814369919E-2  
 9.947355639632490E5     1.003456499340190  -6.528481482143356E-2   9.831056588781179E-5   1.418350749888438E-4  -7.223793765050995E-5   2.452090121022813E-4   9.998968989569361E-1  -6.350248682361993E-2  
 1.060039476424206E6     1.003879477520206  -6.785584059063764E-2   5.514269854161554E-5   2.627266757109324E-4   1.601474233764608E-4   1.944121235169960E-4   9.985308792248575E-1  -6.900696031416401E-2  
 1.129630559402840E6     1.000836609219099  -7.345480831972864E-2   1.663900839149948E-4   1.242945919775868E-4   1.334210847812021E-4   2.471123922751008E-4   9.986590910033260E-1  -7.281113333114139E-2  
 1.203790263586484E6     1.003913611777908  -7.744678751959305E-2  -1.887030206768103E-5   1.796051363387801E-4   7.334582644112510E-5   1.652241744498325E-4   9.998692174166907E-1  -7.872073036942526E-2  
 1.282818516765042E6     1.003106847445670  -8.368571369073714E-2   5.923605478850682E-5   1.686720318827005E-4   8.011192256634823E-5   2.157825084107424E-4   9.994956121067663E-1  -8.722481642950611E-2  
 1.367034936843911E6     9.999248441442403E-1  -9.135184831381363E-2   2.368280794403983E-5   2.900079529200842E-4  -1.044219556917334E-4   3.316821753649192E-4   9.990989842369743E-1  -9.346892891981200E-2  
 1.456780124490607E6     9.975222288831628E-1  -9.712146231247541E-2  -1.354585765824762E-4   2.666285579648932E-4   2.745272768696502E-5   1.406399478902200E-4   9.956332056246038E-1  -1.000449092115870E-1  
 1.552417040643040E6     9.840555474711976E-1  -9.837179181819578E-2   5.982491230667412E-5   2.018797667142141E-4   1.716304291686084E-4   2.853936432459532E-4   9.853197634135121E-1  -1.047304675619632E-1  
 1.654332474450528E6     1.006111535512678  -8.230745595031719E-2   1.040938179802519E-4   2.288238942201594E-4   8.092864472749014E-5   3.585972195638239E-4   1.001900128472505  -8.977560555515904E-2  
 1.762938607584446E6     1.011082029260384  -1.183190054486460E-1   2.259836516817945E-4   3.064644543848250E-4   1.024992361632775E-4   2.919486934392208E-4   1.006178449272491  -1.207663054464694E-1  
 1.878674681245113E6     1.002671071469669  -1.256942399557376E-1  -2.124499324670136E-5   3.392795340963140E-4   1.213304065020088E-4   4.143778767030306E-4   9.965946863320365E-1  -1.286831173594172E-1  
 2.002008772606885E6     9.986242459851393E-1  -1.314915010392607E-1   1.244574830617930E-4   2.784591055547863E-4   1.823544085982988E-4   2.668056369388238E-4   9.950718392253124E-1  -1.347831046294845E-1  
 2.133439687886011E6     9.970934231511730E-1  -1.417151383858048E-1   1.824435854036722E-4   3.305880674768715E-4   9.605240583240924E-5   3.180771536161189E-4   9.936939989881559E-1  -1.426665448173630E-1  
 2.273498979687491E6     9.959383358666805E-1  -1.498096494207709E-1   2.040677874077194E-4   2.804105366308364E-4   1.851714706810351E-4   3.884527839846828E-4   9.918826099283973E-1  -1.510369774662024E-1  
 2.422753096789785E6     9.956572538261351E-1  -1.582806063147436E-1   9.129951013377848E-5   2.841298092976476E-4   9.149298736072711E-5   2.606693186340467E-4   9.907432602555625E-1  -1.632575491975272E-1  
 2.581805675061850E6     9.931748295973463E-1  -1.701054560177635E-1   2.001462131242612E-4   4.077758385951935E-4   1.122915608803469E-4   3.807770044582432E-4   9.892108444027178E-1  -1.725925969005219E-1  
 2.751299978777797E6     9.931452279931367E-1  -1.778388312893859E-1   1.735022826285076E-4   3.420391148835488E-4   1.616587345131274E-4   3.506615162646874E-4   9.890757405277548E-1  -1.835367419747153E-1  
 2.931921502202666E6     9.896380870193123E-1  -1.933724567460817E-1   1.469616884789774E-4   3.932970224600655E-4   1.849822021668516E-4   3.393674927543757E-4   9.859996250822014E-1  -1.966048680585658E-1  
 3.124400741971069E6     9.870170214923366E-1  -2.071528295056437E-1   2.197009984392532E-4   5.181726878534331E-4   1.498702845078957E-4   4.343784877296022E-4   9.805211194470821E-1  -2.123046880678214E-1  
 3.329516151471161E6     9.869955997018127E-1  -2.158801059108264E-1   1.460801923034896E-4   4.049413930469862E-4   1.833271764691023E-4   5.437644851249207E-4   9.806988714607243E-1  -2.241712320061959E-1  
 3.548097289182498E6     9.856392513164716E-1  -2.349229115188930E-1   7.714098395805057E-5   4.878751437492044E-4   1.056054906556613E-4   5.022315324755711E-4   9.752988313274902E-1  -2.386653470174122E-1  
